
Frequency (Hz),S11_Real,S11_Imag,S12_Real,S12_Imag,S13_Real,S13_Imag,S14_Real,S14_Imag,S21_Real,S21_Imag
1000000000.0,-0.7122458,-0.5707133,-0.1039389,-0.5729702,0.3764277,0.4704849,0.18983,0.5445656,-8.571331e-05,1.189911e-05
1058000000.0,0.7899911,0.463614,0.5725254,0.08253137,-0.5932487,0.08119231,-0.5579307,-0.1285681,4.892103e-06,2.75567e-05
1116000000.0,-0.8153284,-0.3979692,-0.2622741,0.5188203,0.2380565,-0.5538855,0.4089256,-0.4054396,4.020263e-05,-7.344528e-06
1174000000.0,0.8471997,0.3124701,-0.4157375,-0.4148892,0.3645616,0.4888846,0.134579,0.5659912,-1.958666e-06,-5.695596e-06
1232000000.0,-0.8658119,-0.251114,0.526888,-0.2660559,-0.6075538,0.07271695,-0.5558924,-0.1781527,1.720806e-05,-1.23587e-05
1290000000.0,0.8964768,0.1421391,0.08763658,0.586207,0.2391295,-0.5654826,0.4412883,-0.3858083,-4.383369e-06,-1.520965e-05
1348000000.0,-0.893602,-0.05148645,-0.586881,-0.09999296,0.3727523,0.4915727,0.1017169,0.5798822,-1.839064e-05,1.608154e-07
1406000000.0,0.8959402,-0.0389589,0.2822295,-0.5217029,-0.6106749,0.06973337,-0.5425805,-0.2222047,1.098622e-05,7.427292e-06
1464000000.0,-0.8802993,0.1091644,0.4024308,0.4361507,0.2551734,-0.5566394,0.4812614,-0.334914,-6.183297e-06,-6.462195e-06
1522000000.0,0.881227,-0.1912525,-0.5490376,0.237156,0.335404,0.5130993,0.01807083,0.5903517,1.998827e-05,-4.36246e-06
1580000000.0,-0.8342744,0.3022024,-0.06782573,-0.5933565,-0.6090685,0.04351377,-0.5203431,-0.2752665,1.432302e-05,-2.632019e-06
1638000000.0,0.8026007,-0.3729187,0.5817453,0.1248048,0.2655621,-0.5473983,0.5009082,-0.3031772,2.085771e-05,5.795317e-06
1696000000.0,-0.7677481,0.4303399,-0.3035877,0.5109245,0.3431458,0.5015472,0.005170302,0.584666,1.157027e-05,-2.242648e-06
1754000000.0,0.7248456,-0.5282638,-0.3821141,-0.4579339,-0.6086236,0.03428371,-0.4980401,-0.3095435,-8.829014e-06,1.273109e-05
1812000000.0,-0.6485401,0.5926632,0.5598401,-0.2202667,0.2946716,-0.5393429,0.5358509,-0.2502018,1.159951e-05,-1.264911e-05
1870000000.0,0.6104541,-0.6377441,0.03423698,0.6061124,0.2894721,0.547853,-0.09592277,0.589282,1.866217e-05,-1.570842e-05
1928000000.0,-0.5217573,0.6945242,-0.5903748,-0.1616067,-0.6245487,-0.04616474,-0.4436449,-0.4084367,6.909833e-06,-6.038894e-06
1986000000.0,0.4723783,-0.7447968,0.3391632,-0.5142854,0.3459064,-0.5298535,0.5805627,-0.1784656,6.958718e-06,-3.15867e-05
2044000000.0,-0.3867838,0.7840686,0.3825886,0.4785319,0.3182195,0.5427981,-0.1134692,0.5916834,1.129223e-05,-4.430416e-06
2102000000.0,0.2982976,-0.822098,-0.561078,0.2005474,-0.6070321,0.03350338,-0.4474045,-0.3736676,-3.172832e-07,1.131308e-05
2160000000.0,-0.2321294,0.8275239,-0.002471866,-0.5902603,0.2747526,-0.5288808,0.5441291,-0.184908,6.705492e-06,-8.118506e-07
2218000000.0,0.1610391,-0.8661404,0.5588298,0.2009333,0.2865228,0.5213425,-0.1566327,0.5542665,-1.640228e-05,3.529019e-06
2276000000.0,-0.02177611,0.8635306,-0.3910939,0.4688649,-0.6029012,-0.06498028,-0.3671581,-0.4621972,1.626873e-05,1.889867e-05
2334000000.0,-0.0249478,-0.8652587,-0.3338469,-0.553405,0.3963017,-0.5013128,0.6198009,-0.05898473,-2.055963e-05,-2.714046e-06
2392000000.0,0.1010995,0.8564123,0.6509324,-0.1836177,0.2901016,0.6041965,-0.2370456,0.6033668,7.240716e-06,-9.370651e-07
2450000000.0,-0.210319,-0.8454148,0.01108952,0.6513357,-0.6504329,0.01888298,-0.4260421,-0.4563845,-8.796982e-06,4.708143e-06
2508000000.0,0.2699832,0.8116139,-0.5754215,-0.1914204,0.287688,-0.5376183,0.5722817,-0.1164463,1.789478e-05,7.995601e-06
2566000000.0,-0.366589,-0.7888005,0.3803635,-0.4544936,0.2657693,0.5346845,-0.2448052,0.5202876,5.7182e-06,3.41428e-06
2624000000.0,0.4417711,0.7220029,0.2932246,0.5281019,-0.5966153,-0.1211949,-0.2556293,-0.529432,9.746231e-06,7.602893e-07
2682000000.0,-0.4856298,-0.7096101,-0.6134081,0.1006774,0.459604,-0.4239253,0.593858,0.1166636,-2.349016e-06,-2.409947e-05
2740000000.0,0.5814232,0.6398421,0.1086323,-0.6320108,0.1309268,0.6306056,-0.4267355,0.4546148,1.290665e-05,6.661935e-06
2798000000.0,-0.6403038,-0.5650566,0.5783817,0.3045027,-0.6350101,-0.1660547,-0.2136563,-0.5967273,1.035359e-05,2.811078e-06
2856000000.0,0.6686192,0.5113824,-0.4721383,0.4420486,0.4198124,-0.4936704,0.6186942,0.07919872,-2.460471e-05,2.013968e-05
2914000000.0,-0.7387816,-0.4406145,-0.2443878,-0.606579,0.2227164,0.6090591,-0.3853897,0.4931519,-7.714332e-06,-1.606835e-05
2972000000.0,0.7847162,0.3244323,0.6854944,-0.02111442,-0.6613714,-0.1445296,-0.2082597,-0.6199343,3.962203e-06,-8.619975e-07
3030000000.0,-0.792594,-0.309185,-0.2040893,0.683179,0.5092264,-0.4870005,0.650463,0.1924223,6.288664e-06,2.101536e-05
3088000000.0,0.8251612,0.1818553,-0.604082,-0.4163402,0.1204187,0.7160423,-0.5470373,0.4311996,-1.09702e-05,6.216928e-06
3146000000.0,-0.8259262,-0.1209299,0.5976273,-0.455506,-0.687803,-0.2816588,-0.06891763,-0.7078004,-1.270829e-05,-1.450739e-05
3204000000.0,0.8436808,0.04205376,0.2512906,0.7218139,0.5983281,-0.4722798,0.6572806,0.3041077,-3.723313e-06,-9.608815e-06
3262000000.0,-0.8517725,0.0344648,-0.7676941,-0.0004775503,0.09736808,0.7711713,-0.6146859,0.3959584,-2.63185e-06,9.789273e-07
3320000000.0,0.8074622,-0.2012308,0.2757993,-0.7435233,-0.7408706,-0.3321978,-0.002972837,-0.7627176,1.523571e-05,-9.16498e-06
3378000000.0,-0.8186011,0.1681825,0.6512923,0.5394259,0.7320307,-0.4716886,0.6808005,0.4578016,-4.709692e-06,-3.115055e-06
3436000000.0,0.7889175,-0.3186496,-0.7560574,0.482667,-0.02206525,0.9258143,-0.8143589,0.3114184,3.962744e-07,4.855758e-06
3494000000.0,-0.7504681,0.3673438,-0.2524536,-0.8971435,-0.7922304,-0.5528051,0.2064441,-0.8810968,1.301804e-06,-6.76433e-07
3552000000.0,0.7118119,-0.4373927,0.9599734,0.03296397,0.9196277,-0.398877,0.6508551,0.6672002,-7.371993e-06,-1.273257e-05
3610000000.0,-0.6676872,0.4951081,-0.3201947,0.9365349,-0.07697595,1.041301,-0.9260444,0.2597191,4.675425e-06,1.193747e-05
3668000000.0,0.5806934,-0.592783,-0.8079147,-0.595372,-0.9231339,-0.5284836,0.1881115,-0.9531141,-1.166783e-05,6.090075e-06
3726000000.0,-0.5866341,0.5896133,0.849222,-0.5817683,0.9029116,-0.6014034,0.7659261,0.633461,-4.152367e-06,2.657653e-06
3784000000.0,0.4361873,-0.7112651,0.2868248,1.051506,0.1044479,1.13842,-0.9867819,0.3726101,-1.466701e-06,-6.606968e-06
3842000000.0,-0.4000228,0.687434,-1.169157,-0.04903982,-1.121019,-0.5137254,0.2010198,-1.119513,5.738034e-06,6.653186e-06
3900000000.0,0.3744827,-0.7489666,0.4016204,-1.161437,1.061122,-0.7580294,0.8902546,0.7979671,-8.822162e-06,1.732619e-06
3958000000.0,-0.2510117,0.7902063,1.031215,0.7395492,0.1429687,1.340782,-1.180099,0.3509433,-1.14206e-05,5.693471e-06
4016000000.0,0.1417266,-0.7958466,-1.025965,0.7905853,-1.287443,-0.5032682,0.2814949,-1.22525,-2.749818e-06,3.605058e-06
4074000000.0,-0.1493299,0.7961044,-0.4551336,-1.234132,1.035233,-0.9523033,0.9603338,0.8468283,5.179055e-06,4.821244e-06
4132000000.0,-0.008116094,-0.8367295,1.346913,-0.06786908,0.4142976,1.367278,-1.231232,0.4705403,-1.940661e-06,4.447209e-06
4190000000.0,0.05054686,0.7959601,-0.3354727,1.364981,-1.437756,-0.2746615,0.1786268,-1.358045,-5.05756e-06,8.8983e-06
4248000000.0,-0.1099296,-0.8234549,-1.279884,-0.7034979,0.975846,-1.152174,1.125717,0.8580756,1.222468e-07,3.226742e-06
4306000000.0,0.2504007,0.7590703,1.004549,-1.066326,0.4746487,1.44328,-1.320981,0.4910232,8.369227e-06,5.056017e-06
4364000000.0,-0.2696312,-0.7576433,0.7432519,1.228953,-1.467528,-0.3485403,0.3057098,-1.35139,-1.13156e-05,1.001991e-06
4422000000.0,0.3397662,0.7546836,-1.366625,0.3468633,1.012829,-1.109116,0.9906623,0.9488246,-2.173694e-05,-8.18361e-06
4480000000.0,-0.4766559,-0.66207,0.07956613,-1.406834,0.5421466,1.418538,-1.320626,0.4303077,-3.66978e-06,-2.309091e-05
4538000000.0,0.4556439,0.6267639,1.356691,0.507873,-1.569252,-0.1314028,0.2080323,-1.433429,-1.03494e-05,-4.721246e-06
4596000000.0,-0.5464578,-0.6370289,-0.9018245,1.228097,0.8440542,-1.453396,1.278809,0.8565528,4.529395e-06,-8.288238e-06
4654000000.0,0.6688941,0.4782588,-1.035776,-1.185787,1.038269,1.438325,-1.355953,0.8462776,3.680014e-06,-8.670643e-06
4712000000.0,-0.6385182,-0.4814744,1.346177,-0.750614,-1.722172,0.3396371,-0.1864618,-1.539804,-4.905505e-07,2.47634e-05
4770000000.0,0.706873,0.4117215,0.3889802,1.385893,0.417275,-1.589642,1.349445,0.492098,3.386951e-05,-1.505711e-05
4828000000.0,-0.7496634,-0.2710586,-1.329888,-0.03882261,1.085538,1.053736,-1.01739,0.831937,4.750469e-06,1.920937e-06
4886000000.0,0.7394654,0.2903208,0.4468213,-1.196546,-1.408568,0.3585384,-0.142479,-1.249572,1.994676e-06,-2.623993e-06
4944000000.0,-0.8073701,-0.2014999,0.9664031,0.7921278,0.4632115,-1.346398,1.08451,0.5738649,1.048768e-06,-3.760764e-06
5002000000.0,0.7770589,0.07588968,-1.069952,0.6343855,0.8114144,1.167551,-1.106587,0.514101,1.394809e-05,-9.110378e-06
5060000000.0,-0.7876059,-0.0853598,-0.2852869,-1.235431,-1.462083,0.03680865,0.2028013,-1.231103,2.336936e-05,7.125136e-06
5118000000.0,0.8246416,-0.07410975,1.30861,0.1009845,0.7505044,-1.335957,0.9791259,0.8516778,-6.775229e-06,9.984168e-06
5176000000.0,-0.7627764,0.169487,-0.4736959,1.280319,0.9213263,1.343922,-1.262758,0.50583,1.597072e-07,-4.834729e-06
5234000000.0,0.7876949,-0.1351632,-1.138371,-0.789542,-1.650532,0.3328803,0.07135225,-1.372926,3.501949e-05,4.755775e-06
5292000000.0,-0.7516302,0.3146207,1.022351,-0.878792,0.3761813,-1.614436,1.148221,0.6692392,-1.884761e-05,8.580877e-07
5350000000.0,0.6756219,-0.3546129,0.5342332,1.165586,1.172877,1.052497,-1.104928,0.5925553,5.868542e-06,4.363255e-06
5408000000.0,-0.7303251,0.3381216,-1.215804,0.1632779,-1.433976,0.4684316,0.08915005,-1.194764,-1.546327e-05,-7.432051e-07
5466000000.0,0.6408783,-0.5103675,0.1979637,-1.162368,0.2401278,-1.425087,0.9550499,0.6449215,1.234934e-05,2.807953e-07
5524000000.0,-0.5483225,0.5336449,1.019609,0.5354043,1.122927,0.8298616,-1.002769,0.5263341,-2.308011e-07,7.911355e-06
5582000000.0,0.5728202,-0.5555153,-0.82401,0.8099198,-1.249595,0.6002603,0.004311974,-1.14296,2.424406e-05,-1.283572e-05
5640000000.0,-0.4877789,0.6569209,-0.5493428,-1.029542,0.1040336,-1.398782,0.9954597,0.5757008,3.722146e-06,8.90044e-06
5698000000.0,0.4089449,-0.666614,1.119572,-0.2485508,1.101337,0.8586853,-1.019051,0.4702486,1.834673e-06,-6.999226e-06
5756000000.0,-0.3930737,0.7089872,-0.09199639,1.078614,-1.288458,0.3230748,0.2887929,-1.017132,5.205011e-06,1.56332e-05
5814000000.0,0.2043527,-0.7499964,-0.9302117,-0.4322792,0.4615313,-1.175488,0.5906208,0.8212304,-4.89794e-06,1.537035e-05
5872000000.0,-0.2538266,0.7217346,0.6977882,-0.7015272,0.7896011,0.9233813,-0.978856,0.09209351,7.170566e-06,2.694089e-05
5930000000.0,0.1540093,-0.8117869,0.4187828,0.8718841,-1.137749,0.342949,0.3300425,-0.9086736,-1.608477e-05,7.278739e-06
5988000000.0,0.01480685,0.8063608,-0.9489601,0.1156601,0.1218009,-1.169212,0.6930151,0.6601986,-7.983463e-06,-6.611504e-06
6046000000.0,-0.0800573,-0.7235363,0.1835668,-0.9266249,0.9853852,0.6103077,-0.8860266,0.3172635,-5.320597e-06,-4.655074e-06
6104000000.0,0.01445758,0.8153431,0.8000848,0.452111,-1.008588,0.4834383,0.2253123,-0.8777142,4.587933e-06,-6.125944e-06
6162000000.0,-0.2321133,-0.7811406,-0.6620736,0.5734888,0.2316254,-1.03035,0.4985443,0.6989538,-9.876995e-06,3.233498e-06
6220000000.0,0.206498,0.7403278,-0.2893169,-0.7940038,0.6952565,0.7444442,-0.8314605,-0.009828142,-5.547423e-06,-9.139506e-07
6278000000.0,-0.3072445,-0.6938814,0.8276795,0.005283786,-0.9623145,0.27326,0.4025611,-0.7086893,-9.296143e-06,-9.23274e-06
6336000000.0,0.3493548,0.6778291,-0.2487124,0.7782094,0.09719428,-0.9793334,0.490441,0.6374558,-1.096558e-05,1.725916e-05
6394000000.0,-0.4428282,-0.6501001,-0.6236845,-0.5120689,0.8016859,0.5314739,-0.7829753,0.131405,-8.146922e-06,-4.403802e-06
6452000000.0,0.4989711,0.6143626,0.7013294,-0.3920012,-0.8604455,0.4102314,0.3023339,-0.7316616,-1.776713e-05,3.841883e-06
6510000000.0,-0.5690823,-0.4121291,0.0582452,0.8083223,0.2922522,-0.9127895,0.2592632,0.7578061,1.133959e-05,1.538899e-05
6568000000.0,0.4841053,0.5539073,-0.7859008,-0.2125986,0.4724164,0.8282074,-0.7346293,-0.3436076,1.768273e-05,-4.084214e-06
6626000000.0,-0.7082803,-0.439819,0.4453747,-0.6853502,-0.9341472,-0.09720358,0.7153121,-0.3963714,4.173115e-06,1.195957e-05
6684000000.0,0.7138679,0.2749858,0.5104002,0.6196241,0.4841284,-0.769192,0.03273915,0.7992024,4.238906e-06,-3.480277e-06
6742000000.0,-0.6548645,-0.2498269,-0.7498732,0.2398966,0.5127683,0.722329,-0.7259772,-0.2903428,-9.370541e-06,5.801373e-08
6800000000.0,0.6849191,0.345888,0.284198,-0.7188887,-0.871294,0.03636768,0.6627009,-0.3926908,1.000496e-05,-3.401496e-06
6858000000.0,-0.8033645,-0.093543,0.6669856,0.3760765,0.3076501,-0.8141212,0.1197969,0.7534189,-1.032474e-05,-5.005373e-06
6916000000.0,0.7452092,0.08663914,-0.5080627,0.5564979,0.5532258,0.6586913,-0.6986806,-0.2633546,-1.005471e-05,-1.05573e-05
6974000000.0,-0.7267669,0.01264994,-0.3699274,-0.6339532,-0.8384326,0.03181608,0.6377605,-0.3556232,-7.967185e-06,1.262544e-05
7032000000.0,0.7007765,-0.0003714226,0.7016237,-0.1441528,0.4774776,-0.6670277,-0.127733,0.7074808,1.835908e-05,-1.345491e-06
7090000000.0,-0.8011525,0.102244,-0.09630235,0.7135037,0.3438355,0.7569172,-0.5385298,-0.483736,5.583456e-06,7.797053e-07
7148000000.0,0.7116162,-0.2858576,-0.6546869,-0.3267195,-0.845076,0.006235283,0.6828523,-0.2658203,1.52222e-05,-9.562394e-06
7206000000.0,-0.5777487,0.3219721,0.5301749,-0.5156039,0.3338682,-0.7668519,-0.07449645,0.7334945,6.091938e-06,-3.181527e-06
7264000000.0,0.6826317,-0.2118686,0.3128367,0.6971433,0.5279987,0.659692,-0.6156742,-0.4492418,8.687749e-06,-1.759633e-06
7322000000.0,-0.6736968,0.4894707,-0.7802005,0.07986407,-0.8426756,0.1020013,0.7350403,-0.2599042,9.228129e-06,-1.633892e-06
7380000000.0,0.455917,-0.5700403,0.1711345,-0.7721977,0.4217447,-0.7073778,-0.2844809,0.7384596,-2.140775e-05,-1.400151e-05
7438000000.0,-0.5333377,0.4421098,0.6604609,0.4115,0.2365468,0.7237018,-0.3590235,-0.695995,-1.150611e-05,-1.576588e-06
7496000000.0,0.5141203,-0.5261173,-0.6298326,0.4824,-0.7041901,-0.2372465,0.7882137,0.1041464,-3.706309e-06,-9.654412e-06
7554000000.0,-0.441035,0.6093098,-0.2611729,-0.7829409,0.5433266,-0.5414854,-0.4347782,0.6942465,-1.125233e-05,1.489291e-05
7612000000.0,0.3565504,-0.6435003,0.8396963,-0.001722797,0.2736659,0.7368143,-0.4689638,-0.684403,-1.208158e-05,6.12203e-06
7670000000.0,-0.252069,0.6240825,-0.2822798,0.8081939,-0.8043545,-0.08492637,0.8327491,-0.1253516,-4.979893e-06,-1.203964e-06
7728000000.0,0.276601,-0.6133986,-0.6794583,-0.5434187,0.5070483,-0.6638333,-0.3301306,0.7897391,1.574015e-05,-8.236204e-06
7786000000.0,-0.2382206,0.7472256,0.7560912,-0.4598491,0.2252527,0.8372871,-0.4356625,-0.7656111,-8.318411e-07,7.063168e-06
7844000000.0,-0.02758642,-0.7409274,0.1829903,0.9194383,-0.8539057,-0.3948511,0.9344752,0.161563,1.267839e-06,4.28327e-06
7902000000.0,-0.02171684,0.6852201,-1.019565,-0.08920348,0.8667547,-0.6013396,-0.6602069,0.806065,9.905681e-06,-4.232124e-06
7960000000.0,0.02946945,-0.7541471,0.2607371,-1.025857,0.2383557,1.075288,-0.5581902,-0.9035296,-4.508317e-06,5.913995e-06
8018000000.0,0.02199101,0.7422376,0.3384239,-0.9186653,-0.5107917,-0.7694376,0.2169592,-0.9470727,0.0001045687,-1.177401e-06
8076000000.0,-0.0627047,-0.7423996,0.8973625,-0.4767707,0.4748366,-0.8498308,0.9266698,-0.3906022,-5.775967e-05,-7.161142e-05
8134000000.0,0.1174318,0.7470822,0.9912699,0.3185272,0.9960501,-0.09327274,0.8499998,0.5696228,7.479143e-05,1.793684e-05
8192000000.0,-0.2105944,-0.7156718,0.4861167,0.9274266,0.6487909,0.7636351,0.008970489,1.026272,-2.685966e-05,2.164744e-05
8250000000.0,0.2618767,0.7077304,-0.3233735,0.9787789,-0.2848613,0.9445992,-0.8507028,0.5500293,7.285264e-05,-8.100863e-05
8308000000.0,-0.3548,-0.6515906,-0.9270926,0.4419254,-0.9495636,0.24785,-0.9056147,-0.4459165,2.591039e-06,-8.411135e-06
8366000000.0,0.4007743,0.6266547,-0.9516101,-0.3565237,-0.6783756,-0.6818129,-0.06221952,-0.9970854,-1.591368e-05,6.421134e-05
8424000000.0,-0.4756388,-0.5703573,-0.389991,-0.9327608,0.2749457,-0.9063838,0.8400803,-0.5265056,-2.436638e-05,3.510958e-05
8482000000.0,0.5111889,0.5433618,0.40026,-0.9228829,0.9186254,-0.180541,0.850244,0.4835381,1.416711e-05,4.075556e-05
8540000000.0,-0.5785778,-0.4597598,0.9450232,-0.3290859,0.5779889,0.7335303,-0.04593751,0.9696906,-1.933026e-06,-1.563569e-05
8598000000.0,0.6121398,0.4282388,0.8981596,0.4705179,-0.38659,0.8618219,-0.8957424,0.4101264,-6.546372e-07,2.563663e-05
8656000000.0,-0.660188,-0.3262682,0.2749535,0.9989358,-0.965785,0.06312396,-0.8073021,-0.6171082,3.665855e-06,7.535992e-05
8714000000.0,0.6713285,0.2999825,-0.5263659,0.9249839,-0.5549282,-0.8277394,0.1258478,-1.035634,4.998323e-05,-1.964155e-05
8772000000.0,-0.7149189,-0.1835129,-1.023149,0.2880392,0.4226125,-0.9122686,0.9496056,-0.4316621,-2.268168e-05,-1.20606e-05
8830000000.0,0.7234422,0.1527017,-0.9201843,-0.5170063,0.9956429,-0.1308647,0.8613023,0.5714695,-4.527977e-06,-7.6723e-06
8888000000.0,-0.7376538,-0.03321901,-0.2688267,-0.9958078,0.634591,0.7513331,-0.02448538,1.009342,-2.360085e-05,-1.473222e-05
8946000000.0,0.7443154,0.005812555,0.5360979,-0.867103,-0.2933733,0.9264828,-0.8608871,0.5043046,1.853054e-05,8.909301e-06
9004000000.0,-0.7188661,0.1195588,1.001545,-0.198931,-0.9356331,0.2566627,-0.8909571,-0.4622623,-2.648558e-05,5.691572e-05
9062000000.0,0.7163703,-0.1523825,0.8562985,0.6231107,-0.7383816,-0.6574003,-0.09936395,-1.038093,-5.910281e-06,3.181002e-05
9120000000.0,-0.6777112,0.259297,0.1820632,1.086824,0.1262994,-1.000918,0.816276,-0.7028058,-3.369686e-05,-6.499513e-05
9178000000.0,0.6765178,-0.29438,-0.6313494,0.9153613,0.9071966,-0.4751916,1.053384,0.2620051,9.197072e-06,2.33949e-05
9236000000.0,-0.6337463,0.3737525,-1.07979,0.2132638,0.9007934,0.4696462,0.3771074,1.000558,-1.329152e-05,4.810948e-05
9294000000.0,0.5955381,-0.4268895,-0.8841255,-0.6124027,0.08689549,0.9917858,-0.6322404,0.8280916,-1.178054e-05,-4.319668e-05
9352000000.0,-0.5349311,0.5025181,-0.1621959,-1.052042,-0.7951458,0.5835399,-1.020396,-0.1231122,1.693107e-05,-5.185632e-06
9410000000.0,0.502836,-0.537348,0.6505605,-0.825439,-0.8949116,-0.3947369,-0.3809514,-0.9420301,0.0001238685,1.125778e-05
9468000000.0,-0.4146619,0.5996637,1.057263,-0.07450403,-0.09991495,-0.9922897,0.6589007,-0.8052406,-6.262634e-05,-2.872813e-05
9526000000.0,0.3765485,-0.6192284,0.7358623,0.8186653,0.9666104,-0.3726089,0.9418575,0.5866481,-3.576751e-05,-6.51239e-05
9584000000.0,-0.3096815,0.6589307,-0.06169347,1.1252,0.8766764,0.6011413,0.0674775,1.1273,-1.720742e-05,-8.077054e-06
9642000000.0,0.2374518,-0.6837702,-0.8320237,0.7741159,0.004127354,1.064268,-0.8857569,0.6951413,7.936396e-05,-6.019606e-05
9700000000.0,-0.1737341,0.7111167,-1.123732,-0.03794249,-0.8779653,0.5760385,-1.048387,-0.3575846,5.010938e-06,-3.693243e-05
9758000000.0,0.09016789,-0.7203466,-0.7567768,-0.8068529,-0.9224918,-0.4506412,-0.2203149,-1.059878,5.363205e-05,2.741293e-05
9816000000.0,-0.02474656,0.7269756,0.06167487,-1.080639,-0.09901895,-0.9963795,0.7691169,-0.7243344,3.819399e-05,-3.191097e-05
9874000000.0,-0.06123554,-0.7211411,0.8288585,-0.6915964,0.774815,-0.6240406,1.020282,0.2510017,4.815044e-06,3.574508e-05
9932000000.0,0.1093232,0.7227989,1.070082,0.1297293,0.9327697,0.3221045,0.3230032,0.996883,8.251166e-06,-1.693442e-05
9990000000.0,-0.3276854,-0.6296374,0.7786378,0.7540028,0.3976639,0.9057354,-0.5186082,0.920817,1.445398e-05,1.273587e-05
10048000000.0,0.2623417,0.6800453,-0.1914447,1.074929,-0.7856741,0.657584,-1.05936,-0.2380035,-1.469808e-05,3.378013e-06
10106000000.0,-0.3553228,-0.6237646,-0.9225309,0.6038095,-0.9891353,-0.3833884,-0.2926864,-1.068986,-3.180139e-06,4.566685e-05
10164000000.0,0.3903915,0.612711,-1.0819,-0.2300911,-0.1402813,-1.050946,0.8115043,-0.7576178,5.210121e-05,1.268062e-05
10222000000.0,-0.4697359,-0.5397982,-0.5775563,-0.9269762,0.8686852,-0.5696892,1.014615,0.405218,3.846564e-05,-3.16515e-05
10280000000.0,0.5044766,0.5180541,0.2556027,-1.052775,0.8667391,0.5412619,0.04987813,1.07456,-6.908741e-05,-1.015159e-06
10338000000.0,-0.5697635,-0.4284726,0.9230092,-0.5295944,-0.1550651,0.9874458,-0.9500354,0.4572101,-5.484699e-05,3.32255e-05
