
Frequency (Hz),S11_Real,S11_Imag,S12_Real,S12_Imag,S13_Real,S13_Imag,S14_Real,S14_Imag,S21_Real,S21_Imag,S22_Real,S22_Imag,S23_Real,S23_Imag,S24_Real,S24_Imag,S31_Real,S31_Imag,S32_Real,S32_Imag,S33_Real,S33_Imag,S34_Real,S34_Imag,S41_Real,S41_Imag,S42_Real,S42_Imag,S43_Real,S43_Imag,S44_Real,S44_Imag
1000000000.0,-0.7122458,-0.5707133,-0.1039389,-0.5729702,0.3764277,0.4704849,0.18983,0.5445656,-8.571331e-05,1.189911e-05,0.04650818,-0.6794171,0.5371423,0.2696493,0.3994109,0.4143965,0.2086191,0.4734841,0.04553679,0.5289279,0.06863099,-0.6148379,-0.09624425,-0.5207906,0.3381934,0.4126219,0.1915321,0.5126038,-0.4058547,-0.4004477,0.09987079,-0.6262894
1058000000.0,0.7899911,0.463614,0.5725254,0.08253137,-0.5932487,0.08119231,-0.5579307,-0.1285681,4.892103e-06,2.75567e-05,0.6370279,0.1436929,-0.4973774,0.3302664,-0.5568495,0.1271993,-0.4832396,0.1749324,-0.5268055,-0.00163787,0.5650514,0.1727929,0.5216228,0.0774079,-0.4260666,0.3144395,-0.5210226,0.1526295,0.4964415,-0.273789,0.5686366,0.1895907
1116000000.0,-0.8153284,-0.3979692,-0.2622741,0.5188203,0.2380565,-0.5538855,0.4089256,-0.4054396,4.020263e-05,-7.344528e-06,-0.3345854,0.4846294,-0.03605274,-0.6012371,0.1824943,-0.5455844,-0.140881,-0.4996779,0.04770668,-0.5298678,-0.3541998,0.4057439,-0.2417271,0.4716814,-0.2915024,-0.4481396,-0.1151362,-0.5355623,0.1203685,0.5599923,-0.3602389,0.3968371
1174000000.0,0.8471997,0.3124701,-0.4157375,-0.4148892,0.3645616,0.4888846,0.134579,0.5659912,-1.958666e-06,-5.695596e-06,-0.2908519,-0.5090923,0.5514668,0.2600654,0.3856209,0.4354894,0.5126804,-0.1070543,0.5288563,0.09343282,-0.2282281,-0.5060245,-0.374984,-0.3820137,0.4664785,-0.271412,0.5471925,-0.08055247,-0.5767365,-0.03880765,-0.2052601,-0.5040478
1232000000.0,-0.8658119,-0.251114,0.526888,-0.2660559,-0.6075538,0.07271695,-0.5558924,-0.1781527,1.720806e-05,-1.23587e-05,0.5718026,-0.120795,-0.4929646,0.3621082,-0.5714558,0.1190051,0.06387724,0.5193776,-0.144727,0.5173615,0.5543101,-0.07909697,0.4812832,-0.2334815,0.2420019,0.4831233,0.03835031,0.5533681,0.197009,-0.5441998,0.5426061,-0.04611143
1290000000.0,0.8964768,0.1421391,0.08763658,0.586207,0.2391295,-0.5654826,0.4412883,-0.3858083,-4.383369e-06,-1.520965e-05,-0.1025204,0.5788532,-0.08344608,-0.6075054,0.1810471,-0.5570883,-0.5257554,0.01916457,-0.5026895,-0.1972027,-0.1315016,0.5464601,0.06625893,0.5316055,-0.500385,0.211849,-0.5576895,-0.005701015,0.4684653,0.3428264,-0.171464,0.5215417
1348000000.0,-0.893602,-0.05148645,-0.586881,-0.09999296,0.3727523,0.4915727,0.1017169,0.5798822,-1.839064e-05,1.608154e-07,-0.5497705,-0.3260283,0.57662,0.2192101,0.3940766,0.4371568,0.01817373,-0.5281502,0.2426439,-0.4839053,-0.5159635,-0.3399937,-0.5269968,-0.1061047,-0.185732,-0.5132003,0.0464393,-0.5571463,-0.4603218,0.3557147,-0.4750967,-0.3768205
1406000000.0,0.8959402,-0.0389589,0.2822295,-0.5217029,-0.6106749,0.06973337,-0.5425805,-0.2222047,1.098622e-05,7.427292e-06,0.4171351,-0.4936282,-0.4709832,0.3974922,-0.5763043,0.1165583,0.5264821,0.048571,0.4603561,0.2849839,0.4140291,-0.471297,0.2702534,-0.4640437,0.520492,-0.1670177,0.5530485,0.08456165,-0.2148203,-0.540714,0.4437275,-0.4204275
1464000000.0,-0.8802993,0.1091644,0.4024308,0.4361507,0.2551734,-0.5566394,0.4812614,-0.334914,-6.183297e-06,-6.462195e-06,0.3167925,0.4752647,-0.1132416,-0.6052135,0.2003407,-0.5551557,-0.07779635,0.5228621,-0.3233973,0.4375467,0.3084969,0.4482571,0.3526448,0.4080552,0.1508808,0.5263098,-0.117374,0.550921,0.5806363,-0.05837184,0.2398114,0.4665131
1522000000.0,0.881227,-0.1912525,-0.5490376,0.237156,0.335404,0.5130993,0.01807083,0.5903517,1.998827e-05,-4.36246e-06,-0.5576715,-0.06280284,0.5807135,0.2120564,0.3718838,0.4653185,-0.5147619,-0.116643,-0.4078941,-0.3634995,-0.5167148,-0.04499606,-0.5028816,0.2008401,-0.5335326,0.1200948,-0.5435494,-0.1583067,-0.114362,0.570895,-0.495939,-0.1374885
1580000000.0,-0.8342744,0.3022024,-0.06782573,-0.5933565,-0.6090685,0.04351377,-0.5203431,-0.2752665,1.432302e-05,-2.632019e-06,0.3412178,-0.5862153,-0.4554243,0.4146821,-0.5843372,0.107704,0.1445299,-0.5048271,0.3892713,-0.3817151,0.3071913,-0.5465862,-0.0447725,-0.5368042,-0.09813795,-0.5347622,0.1856185,-0.5331596,-0.5156821,-0.2617271,0.4021793,-0.4956219
1638000000.0,0.8026007,-0.3729187,0.5817453,0.1248048,0.2655621,-0.5473983,0.5009082,-0.3031772,2.085771e-05,5.795317e-06,0.5842333,0.4373742,-0.1481177,-0.5940522,0.1902008,-0.557565,0.4879123,0.1911158,0.335768,0.4274676,0.5403861,0.4008673,0.5195689,0.1297147,0.5374073,-0.05774149,0.5108061,0.230944,0.3962634,-0.4163713,0.4835017,0.488081
1696000000.0,-0.7677481,0.4303399,-0.3035877,0.5109245,0.3431458,0.5015472,0.005170302,0.584666,1.157027e-05,-2.242648e-06,-0.5144951,0.5134871,0.5911877,0.1536815,0.3905091,0.4390657,-0.2363884,0.467002,-0.4614809,0.2856825,-0.4748319,0.4530498,-0.2903591,0.4520797,0.01166891,0.5391121,-0.2807074,0.4831617,0.2801397,0.5008541,-0.5500216,0.3945184
1754000000.0,0.7248456,-0.5282638,-0.3821141,-0.4579339,-0.6086236,0.03428371,-0.4980401,-0.3095435,-8.829014e-06,1.273109e-05,-0.357603,-0.5991954,-0.4285331,0.4385944,-0.5796994,0.1090991,-0.4480225,-0.2767841,-0.2355001,-0.4923712,-0.2874902,-0.5506146,-0.3321305,-0.4228001,-0.5417418,-0.02491785,-0.4583175,-0.3256205,-0.5632532,0.1224499,-0.2272223,-0.6008409
1812000000.0,-0.6485401,0.5926632,0.5598401,-0.2202667,0.2946716,-0.5393429,0.5358509,-0.2502018,1.159951e-05,-1.264911e-05,0.6044905,-0.179544,-0.1595353,-0.5971918,0.2163256,-0.5544162,0.2994992,-0.4373048,0.5113506,-0.2051382,0.5428337,-0.09761552,0.511298,-0.1798232,0.04086895,-0.5430543,0.3486745,-0.4455339,0.04365781,-0.5767405,0.5715706,-0.0476314
1870000000.0,0.6104541,-0.6377441,0.03423698,0.6061124,0.2894721,0.547853,-0.09592277,0.589282,1.866217e-05,-1.570842e-05,-0.1376666,0.5263114,0.5947098,0.1879704,0.3487849,0.4898112,0.4298543,0.3102488,0.1874818,0.520184,-0.2132521,0.4313017,0.008188598,0.5453614,0.542479,0.04878305,0.4382878,0.3618501,0.5424702,0.2103608,-0.2472376,0.4354284
1928000000.0,-0.5217573,0.6945242,-0.5903748,-0.1616067,-0.6245487,-0.04616474,-0.4436449,-0.4084367,6.909833e-06,-6.038894e-06,-0.3375403,-0.519826,-0.4664972,0.425992,-0.6068795,0.04313321,-0.3329768,0.4174396,-0.5368374,0.1519339,-0.2404562,-0.5451149,-0.5249678,-0.1703453,-0.06144597,0.5468847,-0.3853039,0.4269759,-0.3585799,0.4677892,-0.2192915,-0.5586568
1986000000.0,0.4723783,-0.7447968,0.3391632,-0.5142854,0.3459064,-0.5298535,0.5805627,-0.1784656,6.958718e-06,-3.15867e-05,0.6730097,-0.2481089,-0.1680029,-0.6154304,0.2531095,-0.5578177,-0.3927323,-0.3730286,-0.09781744,-0.55672,0.6726449,-0.1913982,0.3303652,-0.4504324,-0.5523102,-0.09396478,-0.4043292,-0.4221427,-0.3645355,-0.4792161,0.6737313,-0.1578944
2044000000.0,-0.3867838,0.7840686,0.3825886,0.4785319,0.3182195,0.5427981,-0.1134692,0.5916834,1.129223e-05,-4.430416e-06,0.2543812,0.6524395,0.6250325,0.1040577,0.3850492,0.4688143,0.4106763,-0.3499124,0.5615135,-0.02549441,0.2229208,0.6420914,0.3280869,0.449845,0.1353568,-0.5393527,0.4563729,-0.3570442,0.5517591,-0.2326568,0.1870988,0.6348061
2102000000.0,0.2982976,-0.822098,-0.561078,0.2005474,-0.6070321,0.03350338,-0.4474045,-0.3736676,-3.172832e-07,1.131308e-05,-0.58467,0.1198012,-0.3518487,0.5030532,-0.5757044,0.1234497,0.2874315,0.4434323,-0.05940836,0.5478073,-0.558716,0.1067913,-0.5156877,0.162383,0.5094834,0.1858078,0.2894069,0.4857993,0.07372555,0.5743253,-0.5287182,0.06711188
2160000000.0,-0.2321294,0.8275239,-0.002471866,-0.5902603,0.2747526,-0.5288808,0.5441291,-0.184908,6.705492e-06,-8.118506e-07,0.1825614,-0.4672555,-0.2582843,-0.5454459,0.1834952,-0.5522788,-0.466495,0.2267091,-0.5284742,-0.1265837,0.1584479,-0.4357522,0.02066919,-0.529576,-0.2371065,0.4752471,-0.5081567,0.2273199,-0.5532517,-0.1061161,0.1881612,-0.3650027
2218000000.0,0.1610391,-0.8661404,0.5588298,0.2009333,0.2865228,0.5213425,-0.1566327,0.5542665,-1.640228e-05,3.529019e-06,0.2725019,0.4499057,0.5994979,0.07538742,0.3633218,0.4588886,-0.1873427,-0.4829731,0.1753027,-0.5152873,0.2574507,0.3860039,0.4899419,0.2010375,-0.4569434,-0.2728559,-0.183365,-0.5286024,0.2792228,-0.4879086,0.1488494,0.4083899
2276000000.0,-0.02177611,0.8635306,-0.3910939,0.4688649,-0.6029012,-0.06498028,-0.3671581,-0.4621972,1.626873e-05,1.889867e-05,-0.6328214,0.009011932,-0.402705,0.4680716,-0.6001028,0.04204572,0.505224,-0.1618555,0.5138027,0.2181226,-0.5412478,0.01769386,-0.3642698,0.3992294,0.3037206,-0.4575177,0.556415,-0.1557177,0.3822405,0.4305544,-0.540503,-0.1123789
2334000000.0,-0.0249478,-0.8652587,-0.3338469,-0.553405,0.3963017,-0.5013128,0.6198009,-0.05898473,-2.055963e-05,-2.714046e-06,0.1759458,-0.7225456,-0.2123583,-0.6145124,0.2881599,-0.5647477,0.1356275,0.5408399,-0.2734616,0.5165951,0.1638304,-0.6279734,-0.2704908,-0.4972781,0.4703705,0.3410175,0.1273822,0.5952786,-0.5470363,0.2529421,0.2817957,-0.6095442
2392000000.0,0.1010995,0.8564123,0.6509324,-0.1836177,0.2901016,0.6041965,-0.2370456,0.6033668,7.240716e-06,-9.370651e-07,0.7517679,0.153869,0.6757461,0.06632476,0.3993835,0.5216865,-0.573783,0.1121613,-0.514648,-0.3244618,0.6564521,0.1657092,0.5697331,-0.1245135,-0.370244,0.4822255,-0.6246987,0.1006422,-0.1166789,-0.6169421,0.642303,0.261288
2450000000.0,-0.210319,-0.8454148,0.01108952,0.6513357,-0.6504329,0.01888298,-0.4260421,-0.4563845,-8.796982e-06,4.708143e-06,-0.0888387,0.6972647,-0.3064455,0.5816886,-0.6130149,0.1492511,-0.07631308,-0.560044,0.3560213,-0.4653294,-0.1421567,0.578368,-0.03566478,0.567213,-0.4484813,-0.3707628,-0.05538363,-0.6008844,0.6068424,0.02573892,-0.2157211,0.5697764
2508000000.0,0.2699832,0.8116139,-0.5754215,-0.1914204,0.287688,-0.5376183,0.5722817,-0.1164463,1.789478e-05,7.995601e-06,-0.5099423,-0.2385379,-0.3460802,-0.5095816,0.1635187,-0.5675561,0.5333191,-0.01809854,0.3935525,0.3905314,-0.3281773,-0.306858,-0.4909873,-0.2097903,0.3833732,-0.390718,0.5690529,0.01190052,-0.1896626,0.5419863,-0.2973946,-0.352332
2566000000.0,-0.366589,-0.7888005,0.3803635,-0.4544936,0.2657693,0.5346845,-0.2448052,0.5202876,5.7182e-06,3.41428e-06,0.5043647,-0.1726504,0.6031813,-0.00719298,0.3674177,0.4504286,-0.02728515,0.5187114,-0.4207705,0.3429141,0.5141856,0.03003406,0.3725852,-0.3747686,0.3552662,0.4006629,-0.06106869,0.5560643,-0.441492,-0.353285,0.5143443,0.08863073
2624000000.0,0.4417711,0.7220029,0.2932246,0.5281019,-0.5966153,-0.1211949,-0.2556293,-0.529432,9.746231e-06,7.602893e-07,-0.1234018,0.6358089,-0.3555956,0.499998,-0.5925338,0.02025056,-0.5293788,-0.04425875,-0.3311355,-0.4470275,-0.268814,0.5975533,0.2246393,0.4951072,-0.413615,0.3625692,-0.5710133,-0.07478788,0.4881459,-0.3181802,-0.3394295,0.5708939
2682000000.0,-0.4856298,-0.7096101,-0.6134081,0.1006774,0.459604,-0.4239253,0.593858,0.1166636,-2.349016e-06,-2.409947e-05,-0.6367785,-0.3450386,-0.2187217,-0.5885454,0.3336703,-0.5080537,0.05829887,-0.5452073,0.4735871,-0.3241828,-0.5752757,-0.4281515,-0.5576883,0.04691527,-0.375147,-0.4255315,0.08352991,-0.5886962,0.1679581,0.5753731,-0.5366777,-0.4942657
2740000000.0,0.5814232,0.6398421,0.1086323,-0.6320108,0.1309268,0.6306056,-0.4267355,0.4546148,1.290665e-05,6.661935e-06,0.4858356,-0.5774307,0.6351488,0.1005014,0.2751424,0.5585722,0.5539695,0.1087382,0.2819267,0.5175697,0.5355482,-0.5046778,0.1413459,-0.5592097,0.4588563,-0.3590605,0.5942957,0.1296395,-0.612664,-0.003924223,0.5776847,-0.4724649
2798000000.0,-0.6403038,-0.5650566,0.5783817,0.3045027,-0.6350101,-0.1660547,-0.2136563,-0.5967273,1.035359e-05,2.811078e-06,0.5198214,0.5072537,-0.3682355,0.5380127,-0.6289929,0.001518669,-0.1864078,0.5425708,-0.5612934,0.202981,0.4353194,0.5537238,0.4922336,0.3094348,0.3044907,0.5032322,-0.2094266,0.5756839,0.1752237,-0.5947416,0.4227,0.5598069
2856000000.0,0.6686192,0.5113824,-0.4721383,0.4420486,0.4198124,-0.4936704,0.6186942,0.07919872,-2.460471e-05,2.013968e-05,-0.518171,0.3523748,-0.3297989,-0.5512747,0.2701946,-0.5564515,-0.4971977,-0.2742673,-0.08727042,-0.585183,-0.5575516,0.2513508,-0.448734,0.3569619,-0.535756,0.2173861,-0.5189444,-0.3063819,0.5047643,0.3363873,-0.5163637,0.2490203
2914000000.0,-0.7387816,-0.4406145,-0.2443878,-0.606579,0.2227164,0.6090591,-0.3853897,0.4931519,-7.714332e-06,-1.606835e-05,0.1067763,-0.5365437,0.6452019,-0.02797385,0.3527828,0.513183,0.357219,-0.4418251,0.5976883,0.02935056,0.1625162,-0.5350387,-0.1711903,-0.5488998,-0.1255106,-0.5651268,0.4027148,-0.4574965,-0.4863415,0.3644441,0.1848804,-0.4304624
2972000000.0,0.7847162,0.3244323,0.6854944,-0.02111442,-0.6613714,-0.1445296,-0.2082597,-0.6199343,3.962203e-06,-8.619975e-07,0.432085,0.5156549,-0.3201119,0.5939246,-0.6510882,0.03055274,0.4183419,0.4181164,-0.1061672,0.6179848,0.4420358,0.4858727,0.5999436,0.03196551,0.597357,-0.07751417,0.4325448,0.4698011,-0.2004386,-0.6010091,0.285536,0.5255502
3030000000.0,-0.792594,-0.309185,-0.2040893,0.683179,0.5092264,-0.4870005,0.650463,0.1924223,6.288664e-06,2.101536e-05,-0.6748931,0.356032,-0.3424999,-0.610014,0.3448502,-0.579062,-0.4441738,0.4295588,-0.6405319,-0.1295631,-0.5878234,0.3869973,-0.2272857,0.5801581,0.0833108,0.6217795,-0.4919989,0.4447046,0.6576981,-0.02591532,-0.6390199,0.2143809
3088000000.0,0.8251612,0.1818553,-0.604082,-0.4163402,0.1204187,0.7160423,-0.5470373,0.4311996,-1.09702e-05,6.216928e-06,-0.2444597,-0.7339603,0.7152364,0.04619625,0.2920327,0.6232045,-0.4416317,-0.4531407,0.1382426,-0.6513956,-0.2591234,-0.6170576,-0.4871463,-0.4065316,-0.6320481,0.09468971,-0.4523345,-0.497164,-0.162477,0.6464113,-0.09683838,-0.6541693
3146000000.0,-0.8259262,-0.1209299,0.5976273,-0.455506,-0.687803,-0.2816588,-0.06891763,-0.7078004,-1.270829e-05,-1.450739e-05,0.7528267,-0.09162437,-0.4140144,0.6011941,-0.6939293,-0.0795865,0.4898428,-0.4245501,0.6510619,0.1888061,0.6196903,-0.05067914,0.5503051,-0.3364023,-0.06626608,-0.6515572,0.5344152,-0.4279647,-0.5791985,-0.3578979,0.6249999,0.07015033
3204000000.0,0.8436808,0.04205376,0.2512906,0.7218139,0.5983281,-0.4722798,0.6572806,0.3041077,-3.723313e-06,-9.608815e-06,-0.03390431,0.7236282,-0.3415036,-0.6619647,0.4126169,-0.5745305,0.3841762,0.5422836,-0.2679615,0.6365967,-0.1574266,0.5636969,0.139703,0.6434687,0.6676465,-0.01370053,0.3782423,0.5818036,0.5235304,-0.4592621,-0.2162847,0.5395395
3262000000.0,-0.8517725,0.0344648,-0.7676941,-0.0004775503,0.09736808,0.7711713,-0.6146859,0.3959584,-2.63185e-06,9.789273e-07,-0.6051431,-0.2673021,0.7542331,0.03803025,0.2756391,0.655371,-0.5864069,0.3344527,-0.6094717,-0.3428214,-0.3632285,-0.42868,-0.6638777,-0.08818062,-0.04532959,0.6735133,-0.6224443,0.318354,0.2808693,0.6543539,-0.2949208,-0.425158
3320000000.0,0.8074622,-0.2012308,0.2757993,-0.7435233,-0.7408706,-0.3321978,-0.002972837,-0.7627176,1.523571e-05,-9.16498e-06,0.6214827,-0.2575639,-0.4350145,0.6531557,-0.7275242,-0.117083,-0.2669372,-0.6478982,0.4379443,-0.5763189,0.6841455,0.02434814,0.3272946,-0.6175818,-0.6880723,-0.1338558,-0.2397381,-0.683512,-0.7451294,0.05566996,0.6118051,0.132613
3378000000.0,-0.8186011,0.1681825,0.6512923,0.5394259,0.7320307,-0.4716886,0.6808005,0.4578016,-4.709692e-06,-3.115055e-06,-0.07423517,0.810441,-0.3388287,-0.7661829,0.535682,-0.5801934,0.7069927,-0.2494432,0.5816956,0.5062362,-0.2755504,0.800901,0.5161719,0.5482846,0.1768152,-0.7304625,0.742893,-0.2121796,0.1792923,-0.779671,-0.3955587,0.6978979
3436000000.0,0.7889175,-0.3186496,-0.7560574,0.482667,-0.02206525,0.9258143,-0.8143589,0.3114184,3.962744e-07,4.855758e-06,-0.8701784,-0.2232947,0.8772808,0.1476952,0.1865896,0.8168355,0.2830695,0.7469102,-0.5340793,0.617174,-0.8471547,-0.374665,-0.7139246,0.3458377,0.7856783,0.1579151,0.239743,0.7832546,0.7442608,0.4042993,-0.7390572,-0.4837761
3494000000.0,-0.7504681,0.3673438,-0.2524536,-0.8971435,-0.7922304,-0.5528051,0.2064441,-0.8810968,1.301804e-06,-6.76433e-07,0.3643674,-0.8631344,-0.6238471,0.6848198,-0.814213,-0.3034542,-0.7646208,0.3061534,-0.6377302,-0.5434613,0.5291948,-0.8156431,-0.1216822,-0.8108249,-0.1372099,0.8127309,-0.7962326,0.260905,-0.6136444,0.6205031,0.5981943,-0.6947241
3552000000.0,0.7118119,-0.4373927,0.9599734,0.03296397,0.9196277,-0.398877,0.6508551,0.6672002,-7.371993e-06,-1.273257e-05,0.7879032,0.5278088,-0.2825724,-0.9179943,0.703339,-0.5513664,-0.282193,-0.8055054,0.5977753,-0.6248104,0.7074485,0.7107497,0.8319952,0.1385658,-0.8369719,-0.163925,-0.2364478,-0.8315305,-0.4439352,-0.7938233,0.5781206,0.7245525
3610000000.0,-0.6676872,0.4951081,-0.3201947,0.9365349,-0.07697595,1.041301,-0.9260444,0.2597191,4.675425e-06,1.193747e-05,-0.6782579,0.6869103,0.9850737,0.1681571,0.1657941,0.9053275,0.8521609,-0.2211808,0.5817922,0.6720882,-0.8614665,0.5923639,-0.3926402,0.7745488,0.2243153,-0.8497148,0.868594,-0.1773925,0.9123501,-0.2273638,-0.83636,0.433293
3668000000.0,0.5806934,-0.592783,-0.8079147,-0.595372,-0.9231339,-0.5284836,0.1881115,-0.9531141,-1.166783e-05,6.090075e-06,-0.3385276,-0.9277501,-0.5741614,0.8420804,-0.8965656,-0.2491099,0.1139264,0.884393,-0.7559727,0.4868968,-0.2772418,-1.052009,-0.6251589,-0.6132957,0.8288726,0.3209635,0.06619985,0.8939099,-0.02702142,0.9547502,-0.03370824,-0.9386821
3726000000.0,-0.5866341,0.5896133,0.849222,-0.5817683,0.9029116,-0.6014034,0.7659261,0.633461,-4.152367e-06,2.657653e-06,0.9763089,0.3709676,-0.5288389,-0.8963783,0.645376,-0.7027293,-0.9083313,-0.02943192,-0.3504762,-0.8465988,1.067308,0.353734,0.8012735,-0.3874305,-0.4434862,0.7898572,-0.9098713,-0.07964081,-0.9178157,-0.3067302,0.8065001,0.58301
3784000000.0,0.4361873,-0.7112651,0.2868248,1.051506,0.1044479,1.13842,-0.9867819,0.3726101,-1.466701e-06,-6.606968e-06,-0.7486058,0.8202808,1.094736,-0.0693204,0.3334281,0.9560333,0.1677582,-0.9515426,0.945145,-0.221868,-0.6870808,0.9193741,0.09569261,0.9400257,-0.7756726,-0.5708392,0.2202612,-0.9418904,0.6009581,-0.8259172,-0.840227,0.6364744
3842000000.0,-0.4000228,0.687434,-1.169157,-0.04903982,-1.121019,-0.5137254,0.2010198,-1.119513,5.738034e-06,6.653186e-06,-0.804864,-0.800774,-0.4886766,1.074109,-1.073306,-0.1861655,1.024334,0.2298969,0.1614114,1.036247,-0.8890668,-0.7299553,-1.000392,-0.2129661,0.6413476,-0.8258129,1.001933,0.2936347,0.6873924,0.865417,-0.6372924,-0.8595742
3900000000.0,0.3744827,-0.7489666,0.4016204,-1.161437,1.061122,-0.7580294,0.8902546,0.7979671,-8.822162e-06,1.732619e-06,0.8424502,-0.7828818,-0.7595493,-0.9867046,0.7298004,-0.8797601,-0.2211935,1.088414,-1.097388,0.1493559,0.78491,-0.844772,0.5168265,-0.9541238,0.9025066,0.6345454,-0.3012372,1.057476,-1.059389,0.5019603,0.8835281,-0.5829126
3958000000.0,-0.2510117,0.7902063,1.031215,0.7395492,0.1429687,1.340782,-1.180099,0.3509433,-1.14206e-05,5.693471e-06,0.619903,0.9541354,1.272882,-0.2197791,0.4120686,1.104873,-1.128213,-0.2249967,-0.1228613,-1.141158,0.6061929,0.9679669,0.7897316,0.7945907,-0.6289531,0.9536804,-1.097123,-0.3140846,-0.2585604,-1.191721,0.3095273,0.9579727
4016000000.0,0.1417266,-0.7958466,-1.025965,0.7905853,-1.287443,-0.5032682,0.2814949,-1.22525,-2.749818e-06,3.605058e-06,-1.128431,0.2692954,-0.3656106,1.275914,-1.196509,-0.1553655,0.2836214,-1.147326,1.176574,-0.04049989,-1.155628,0.08479781,-1.020093,0.5399821,-0.9654307,-0.6653714,0.3749215,-1.105252,1.257551,0.03176126,-0.9493225,-0.2281792
4074000000.0,-0.1493299,0.7961044,-0.4551336,-1.234132,1.035233,-0.9523033,0.9603338,0.8468283,5.179055e-06,4.821244e-06,0.5374246,-1.087884,-1.035174,-0.8759252,0.6928956,-1.022008,1.159283,0.3765032,-0.08103245,1.208347,0.8643268,-0.8677657,-0.2199859,-1.162501,0.7316192,-0.9548814,1.099039,0.4736102,-0.3246688,1.247993,0.9226418,-0.4374279
4132000000.0,-0.008116094,-0.8367295,1.346913,-0.06786908,0.4142976,1.367278,-1.231232,0.4705403,-1.940661e-06,4.447209e-06,0.5003434,1.158029,1.243796,-0.5929947,0.6304855,1.105466,-0.4801345,1.152978,-1.221145,-0.2072397,0.09122005,1.2661,1.212514,0.1204038,0.9231971,0.8144064,-0.5805172,1.072554,-1.141869,-0.6199189,-0.1581216,1.117927
