
Frequency (Hz),S11_Real,S11_Imag,S12_Real,S12_Imag
1000000000.0,-0.7126094,-0.5758458,2.607288e-05,-5.26641e-05
1078000000.0,0.7820577,-0.481913,1.914498e-05,1.95915e-06
1156000000.0,0.1923917,0.8859437,1.002791e-05,8.59137e-06
1234000000.0,-0.8901078,-0.1537436,2.00043e-05,-5.472064e-06
1312000000.0,0.4592544,-0.7849079,1.603976e-05,-1.161021e-05
1390000000.0,0.5905539,0.6794739,2.308879e-05,-3.400718e-06
1468000000.0,-0.8373349,0.3036468,-7.342739e-06,-7.971666e-06
1546000000.0,0.01817761,-0.8945906,-3.250018e-06,-3.22634e-06
1624000000.0,0.8330983,0.3089412,-8.542541e-06,1.693423e-05
1702000000.0,-0.5793113,0.6611778,2.054785e-06,1.277517e-08
1780000000.0,-0.407984,-0.7838012,-1.05042e-05,1.236239e-05
1858000000.0,0.8761235,-0.1250961,-1.326398e-06,1.292261e-05
1936000000.0,-0.173601,0.8540776,-5.961163e-06,-4.979252e-06
2014000000.0,-0.7341579,-0.4745081,1.050871e-06,-1.790196e-06
2092000000.0,0.6926381,-0.5350273,3.142916e-06,-4.218786e-06
2170000000.0,0.2639952,0.822163,-1.895167e-05,-5.825444e-06
2248000000.0,-0.8585721,-0.06527501,-4.651532e-06,-1.152995e-07
2326000000.0,0.3599507,-0.79126,-4.462602e-06,1.66549e-05
2404000000.0,0.6122577,0.6074901,-1.107871e-05,-2.153248e-06
2482000000.0,-0.6813666,0.5395938,-1.299032e-05,1.863008e-06
2560000000.0,-0.08687808,-0.8670202,-2.386678e-05,8.593976e-06
2638000000.0,0.8351344,0.2010104,-1.38719e-06,-1.939265e-05
2716000000.0,-0.4782272,0.7037318,-2.476051e-06,-2.624881e-05
2794000000.0,-0.497515,-0.6996566,-2.037969e-05,7.030454e-06
2872000000.0,0.8198621,-0.240245,1.69274e-06,2.366467e-05
2950000000.0,-0.09122613,0.8400291,2.114964e-05,-7.136278e-06
3028000000.0,-0.7562743,-0.3971709,9.176142e-06,1.528137e-07
3106000000.0,0.6244021,-0.5901219,1.090381e-05,2.06035e-06
3184000000.0,0.3265124,0.7842,-2.344329e-05,4.485851e-06
3262000000.0,-0.8554928,0.0287887,-2.288077e-06,1.847345e-06
3340000000.0,0.1979202,-0.8387773,-6.876192e-06,8.95894e-06
3418000000.0,0.6882284,0.4902751,5.029763e-07,-3.183316e-06
3496000000.0,-0.7118024,0.4482864,2.857386e-06,-2.047279e-06
3574000000.0,-0.1893837,-0.8255742,1.403474e-05,-2.442474e-06
3652000000.0,0.8259318,0.1120356,3.524425e-08,6.810714e-07
3730000000.0,-0.4414856,0.7056333,1.730991e-06,1.742085e-05
3808000000.0,-0.533937,-0.6616336,1.06229e-05,5.934314e-06
3886000000.0,0.7921128,-0.305451,-1.955447e-05,-4.492947e-06
3964000000.0,0.002708391,0.8362851,-8.772382e-06,-9.434027e-07
4042000000.0,-0.7953099,-0.2697059,1.092017e-05,2.444629e-06
4120000000.0,0.4840662,-0.6745626,-1.713973e-05,-7.219773e-06
4198000000.0,0.4144758,0.6889913,-1.594829e-06,-1.036051e-05
4276000000.0,-0.8025874,0.09806625,9.832484e-06,9.723034e-06
4354000000.0,0.1853931,-0.7996827,7.302255e-06,1.036379e-05
4432000000.0,0.6753705,0.4625223,-1.030703e-06,3.900343e-06
4510000000.0,-0.694628,0.4569231,-2.180115e-06,-8.749073e-06
4588000000.0,-0.2544965,-0.8072984,4.922224e-06,-3.512384e-06
4666000000.0,0.839161,-0.02006095,-1.21763e-05,-7.048042e-06
4744000000.0,-0.2586931,0.7728488,1.278611e-06,1.380868e-05
4822000000.0,-0.6186335,-0.5084884,-1.451809e-05,7.34552e-07
4900000000.0,0.6973681,-0.3619225,-1.536873e-05,1.120636e-06
4978000000.0,0.08936879,0.7712582,-7.299653e-06,-1.00973e-05
5056000000.0,-0.7626681,-0.2565932,-5.482641e-06,5.449789e-08
5134000000.0,0.5019308,-0.6515108,-4.152658e-06,4.928691e-06
5212000000.0,0.4577253,0.6796834,8.919307e-06,4.672926e-06
5290000000.0,-0.7856354,0.237791,2.739331e-05,1.347992e-06
5368000000.0,0.02002132,-0.8087541,1.153538e-05,1.616185e-05
5446000000.0,0.7128322,0.3268763,-3.757756e-06,1.223487e-05
5524000000.0,-0.5569618,0.5443003,7.529216e-07,1.022453e-05
5602000000.0,-0.2940335,-0.7283447,1.793461e-05,9.807798e-06
5680000000.0,0.7892302,0.04163732,-8.052155e-06,3.760351e-05
5758000000.0,-0.3214065,0.7508841,-3.815062e-06,-1.164176e-05
5836000000.0,-0.6598602,-0.5095216,-2.318702e-05,-7.205218e-07
5914000000.0,0.7083752,-0.4350455,-6.814963e-06,-9.823106e-06
5992000000.0,0.1761975,0.8202088,-2.88291e-05,-4.75035e-06
6070000000.0,-0.838994,0.0005470756,3.298275e-05,-1.204442e-05
6148000000.0,0.3840537,-0.7039777,1.185671e-05,1.117885e-05
6226000000.0,0.4583411,0.6491722,-2.634007e-05,1.80007e-05
6304000000.0,-0.7659206,0.250521,2.553393e-06,5.756838e-06
6382000000.0,0.04573559,-0.8047189,9.250346e-06,-8.06824e-06
6460000000.0,0.7231558,0.3806488,9.31937e-06,-1.777646e-05
6538000000.0,-0.5664812,0.6203561,1.300899e-05,2.305863e-05
6616000000.0,-0.4455365,-0.7116367,-1.743165e-06,-1.665195e-05
6694000000.0,0.8117445,-0.1223287,-7.952473e-06,5.248639e-06
6772000000.0,-0.1795302,0.8008975,1.006311e-05,1.428868e-05
6850000000.0,-0.7071037,-0.3968176,1.048668e-05,4.012833e-06
6928000000.0,0.664596,-0.4262691,-1.025376e-05,2.511536e-06
7006000000.0,0.09884663,0.7911469,-1.33874e-05,9.315876e-06
7084000000.0,-0.8118086,-0.1271027,3.15977e-06,2.788521e-07
7162000000.0,0.4010835,-0.7132859,1.08408e-05,-9.229224e-07
7240000000.0,0.5241742,0.6426287,-1.230067e-05,-1.030203e-05
7318000000.0,-0.7551817,0.3659468,-2.396781e-07,-3.947121e-06
7396000000.0,-0.1256818,-0.803358,-9.858287e-06,4.305889e-06
7474000000.0,0.7253297,0.2580204,-7.177528e-08,1.153845e-06
7552000000.0,-0.5129425,0.5666779,-4.014303e-07,-6.514313e-06
7630000000.0,-0.3294221,-0.6862318,2.80881e-06,4.798033e-06
7708000000.0,0.7667682,-0.01156119,-3.596682e-06,-4.021185e-06
7786000000.0,-0.2429117,0.7516513,-4.600722e-06,-6.729694e-06
7864000000.0,-0.659496,-0.4385401,5.935941e-06,-5.152971e-06
7942000000.0,0.6514513,-0.4678028,-5.199794e-06,-8.542393e-06
8020000000.0,0.07183219,0.7374476,-2.702478e-06,4.58637e-05
8098000000.0,-0.7281544,-0.1736877,2.663863e-05,2.750998e-05
8176000000.0,0.4350138,-0.6102856,-2.233942e-05,-2.545449e-05
8254000000.0,0.4208465,0.6259614,-3.295592e-05,-6.287615e-05
8332000000.0,-0.7168574,0.2155211,-0.0001326566,5.25849e-05
8410000000.0,0.06435813,-0.7413644,4.806544e-05,-3.538124e-06
8488000000.0,0.668677,0.3361934,5.037181e-05,5.605571e-05
8566000000.0,-0.5165798,0.5321095,4.295445e-05,-7.78468e-05
8644000000.0,-0.3187054,-0.6640213,2.638981e-05,8.417354e-06
8722000000.0,0.735504,-0.0360943,-9.581175e-05,-6.482196e-05
8800000000.0,-0.1940545,0.7168585,-2.974568e-05,-0.0001122864
8878000000.0,-0.6118491,-0.4129319,-5.647905e-05,9.302812e-06
8956000000.0,0.626372,-0.4035124,8.335073e-05,-0.000110114
9034000000.0,0.1950215,0.7152042,4.259093e-06,0.0001009164
9112000000.0,-0.7240407,-0.04704743,-3.88334e-06,4.781275e-05
9190000000.0,0.3285359,-0.6591,0.0001094643,-4.724509e-05
9268000000.0,0.5016243,0.5371378,6.834969e-05,-1.865313e-05
9346000000.0,-0.6628606,0.3163811,-3.74181e-05,-1.418072e-05
9424000000.0,-0.05423254,-0.7301346,-3.92853e-05,-4.133417e-05
9502000000.0,0.6991608,0.2123268,0.0001094107,-4.662059e-05
9580000000.0,-0.4328325,0.5868244,8.204019e-06,-3.731669e-05
9658000000.0,-0.4146836,-0.5987946,-2.514117e-05,2.303956e-05
9736000000.0,0.7121517,-0.1481122,-3.946206e-05,0.0001203234
9814000000.0,-0.08739425,0.7226922,-4.526689e-05,9.636851e-06
9892000000.0,-0.6537154,-0.3084772,-5.5573e-05,2.93019e-05
9970000000.0,0.5367308,-0.4763689,-6.666639e-05,-2.09967e-05
10048000000.0,0.2775789,0.6749493,-7.494042e-05,1.273016e-05
10126000000.0,-0.7229322,0.06882758,2.914937e-05,2.185334e-05
10204000000.0,0.2056778,-0.6869198,1.199624e-05,3.556382e-05
10282000000.0,0.5702592,0.4475132,7.594245e-05,-7.702074e-06
10360000000.0,-0.5875165,0.4090722,-4.691493e-05,-4.295146e-05
10438000000.0,-0.1783291,-0.690519,-6.115543e-05,-4.516189e-05
10516000000.0,0.7136304,0.1050985,-2.770707e-05,0.0001558034
10594000000.0,-0.3168353,0.6405418,-4.232395e-05,6.475329e-05
10672000000.0,-0.5090697,-0.4967082,-3.17103e-05,6.028168e-05
10750000000.0,0.6671669,-0.2752862,3.717927e-05,1.036081e-05
10828000000.0,0.03296459,0.7222532,-3.188611e-05,0.0001033707
10906000000.0,-0.6894024,-0.1711781,9.331384e-05,1.776421e-05
10984000000.0,0.4333202,-0.5625556,-3.988638e-05,-2.328027e-06
11062000000.0,0.3759764,0.6057226,-1.348956e-05,-2.684745e-05
11140000000.0,-0.6875566,0.1737767,3.320463e-05,2.792009e-05
11218000000.0,0.08066586,-0.7067353,-8.994693e-06,-9.641571e-06
11296000000.0,0.6304442,0.3403611,2.465591e-07,-2.755148e-05
11374000000.0,-0.5122834,0.4914003,-1.75153e-05,-1.429861e-05
11452000000.0,-0.2906976,-0.6401648,-5.514469e-05,-5.777439e-05
11530000000.0,0.7041084,-0.01531903,-6.929296e-06,5.794414e-06
11608000000.0,-0.2012896,0.6760946,2.677887e-06,3.493814e-05
11686000000.0,-0.566556,-0.404109,-5.911949e-05,-6.402535e-05
11764000000.0,0.6092787,-0.3684848,2.011846e-05,3.267742e-05
11842000000.0,0.1672064,0.6883216,2.853986e-06,1.753983e-05
11920000000.0,-0.6946753,-0.06615293,1.936643e-06,-1.105558e-05
11998000000.0,0.3288257,-0.619335,-4.975812e-06,1.567225e-05
12076000000.0,0.4740257,0.5212688,2.142794e-05,-1.081167e-05
12154000000.0,-0.6223363,0.2776512,1.765251e-05,1.209588e-05
12232000000.0,-0.04953066,-0.6970143,8.114574e-06,-1.582838e-05
12310000000.0,0.6683513,0.2296192,3.19847e-05,-1.562821e-05
12388000000.0,-0.405772,0.5682719,-9.598648e-06,-7.995176e-06
12466000000.0,-0.374811,-0.5830275,4.834988e-06,1.454478e-05
12544000000.0,0.6901318,-0.1258619,4.77498e-05,-3.523987e-05
12622000000.0,-0.07440007,0.6833298,1.477456e-05,1.844307e-05
12700000000.0,-0.6231619,-0.2749698,3.592928e-05,-4.494906e-05
12778000000.0,0.5255526,-0.4497592,6.071326e-06,-6.246544e-07
12856000000.0,0.2754068,0.6419198,1.363348e-06,2.885911e-05
12934000000.0,-0.6798399,0.06084069,2.584451e-05,-1.782417e-05
13012000000.0,0.2162357,-0.6544117,-3.263709e-05,-1.057641e-05
13090000000.0,0.5440042,0.4287881,4.186062e-05,-4.027734e-05
13168000000.0,-0.5441548,0.4077484,4.076595e-05,1.098549e-05
13246000000.0,-0.161655,-0.6542468,2.17843e-05,-2.490637e-05
13324000000.0,0.6857018,0.08360178,6.560625e-05,-2.996878e-05
13402000000.0,-0.2610263,0.6288959,-1.01279e-06,-2.34664e-05
13480000000.0,-0.4993547,-0.448863,5.351174e-05,-6.282424e-05
13558000000.0,0.6196759,-0.2819155,-9.508724e-06,-2.705375e-05
13636000000.0,0.08127206,0.6826342,2.168761e-05,-4.040477e-06
13714000000.0,-0.6659493,-0.1029021,-1.677643e-06,7.494793e-05
13792000000.0,0.3712956,-0.556502,2.28641e-05,-3.403944e-05
13870000000.0,0.4141522,0.5396432,1.295155e-05,-3.366235e-05
13948000000.0,-0.6151068,0.2778858,3.235701e-05,-2.755064e-06
14026000000.0,-0.0183124,-0.6613902,-1.210902e-05,6.103935e-05
14104000000.0,0.6233724,0.2584223,2.861017e-05,1.666039e-05
14182000000.0,-0.4154358,0.5409345,1.061171e-05,3.528461e-05
14260000000.0,-0.3873813,-0.5381303,-2.183284e-05,5.042616e-05
14338000000.0,0.6560408,-0.1157129,1.628091e-05,-3.305653e-05
14416000000.0,-0.08379301,0.6762941,2.822312e-06,1.093719e-06
14494000000.0,-0.6251854,-0.2343751,4.271187e-05,2.247037e-05
14572000000.0,0.4764671,-0.4472189,-2.609403e-05,-1.346912e-05
14650000000.0,0.2499345,0.6244598,6.874781e-06,2.544981e-05
14728000000.0,-0.6587267,0.1221773,-1.157764e-07,1.438553e-05
14806000000.0,0.1440994,-0.6408132,-8.943691e-06,3.726193e-06
14884000000.0,0.5322071,0.4052505,-5.094952e-06,2.891369e-05
14962000000.0,-0.5170456,0.4403802,-5.756382e-07,4.391284e-05
15040000000.0,-0.2412203,-0.6150066,5.424576e-05,1.492122e-05
15118000000.0,0.6453976,0.0887785,8.205084e-05,1.682829e-05
15196000000.0,-0.2354466,0.629088,5.995628e-05,5.371968e-05
15274000000.0,-0.5231473,-0.3945083,7.014421e-05,3.079726e-05
15352000000.0,0.5971669,-0.2681546,-1.115636e-05,-1.921343e-05
15430000000.0,0.09665181,0.6691918,-6.085896e-05,1.754843e-05
15508000000.0,-0.6621163,-0.06788038,-3.517765e-07,-5.270066e-05
15586000000.0,0.3369027,-0.5580685,5.784131e-05,-9.53262e-06
15664000000.0,0.4103029,0.5204958,5.956317e-06,3.628045e-07
15742000000.0,-0.5863953,0.2893672,-1.843408e-06,-1.465211e-05
15820000000.0,-0.001597255,-0.6400884,5.733574e-06,3.58792e-05
15898000000.0,0.616376,0.246257,1.36989e-05,-4.722127e-05
15976000000.0,-0.3657473,0.5541928,5.584079e-05,2.27366e-06
16054000000.0,-0.3646539,-0.5412676,-3.440729e-06,-4.524165e-05
16132000000.0,0.6511177,-0.1164585,-1.992705e-05,-3.991582e-05
16210000000.0,-0.01063166,0.661595,-5.879404e-05,4.904315e-06
16288000000.0,-0.5944743,-0.2197517,2.758728e-05,8.187292e-05
16366000000.0,0.4858095,-0.4263968,5.706914e-05,2.395772e-05
16444000000.0,0.3103632,0.5859277,-3.117284e-05,-4.137194e-07
16522000000.0,-0.6243436,0.1396577,0.0001071896,5.93114e-06
16600000000.0,0.1782663,-0.6255505,-2.103276e-05,-4.183665e-05
16678000000.0,0.5809642,0.3380443,7.181528e-06,3.193195e-05
16756000000.0,-0.4221283,0.4870513,5.681509e-05,-3.099178e-05
16834000000.0,-0.2282121,-0.5831929,-1.854088e-05,-1.045765e-05
16912000000.0,0.6572807,0.01576285,-9.294334e-05,-3.934449e-05
16990000000.0,-0.09541801,0.6320652,4.231947e-06,5.418766e-05
17068000000.0,-0.5178983,-0.342614,2.930812e-05,-1.815768e-05
17146000000.0,0.5672343,-0.3376101,1.793276e-05,-1.96269e-06
17224000000.0,0.2620421,0.6145206,1.757322e-05,-3.634357e-05
17302000000.0,-0.6124719,0.06391107,-3.171906e-06,-1.07252e-05
17380000000.0,0.2613137,-0.5748035,-3.287212e-05,-1.35627e-05
17458000000.0,0.5206112,0.3934869,-6.746937e-06,2.499054e-05
17536000000.0,-0.454923,0.4157383,-3.822625e-05,2.670515e-05
17614000000.0,-0.121506,-0.6056144,4.600195e-06,-1.742436e-05
17692000000.0,0.6563801,0.09134248,2.08075e-05,-6.797841e-06
17770000000.0,-0.1523941,0.6268077,-3.211524e-05,-1.297183e-06
17848000000.0,-0.4802307,-0.3790983,-8.682413e-06,3.019704e-05
17926000000.0,0.5765347,-0.2617314,5.975282e-06,1.310096e-05
18004000000.0,0.2375569,0.6000296,-4.643609e-05,1.159224e-05
18082000000.0,-0.5936642,0.01350464,-1.446828e-06,-2.069302e-06
18160000000.0,0.3093127,-0.5465031,-1.332539e-05,3.792505e-05
18238000000.0,0.4902457,0.4238147,-4.253239e-06,-1.748844e-05
18316000000.0,-0.5076014,0.3696614,2.41032e-05,1.72632e-05
18394000000.0,-0.0959962,-0.6075315,8.916933e-06,3.334022e-05
18472000000.0,0.6319961,0.09025845,1.173351e-05,4.132665e-06
18550000000.0,-0.205436,0.58735,1.40006e-05,-7.174122e-06
18628000000.0,-0.4493456,-0.3929633,1.237268e-05,-3.104173e-05
18706000000.0,0.5683055,-0.2431806,2.822201e-05,2.268893e-05
18784000000.0,0.1509407,0.6142509,3.745379e-05,8.088065e-08
18862000000.0,-0.6107321,-0.03538286,-3.135655e-05,3.917143e-06
18940000000.0,0.2839513,-0.5491489,-1.014354e-05,8.30672e-06
19018000000.0,0.4708674,0.4244542,-2.925871e-05,-7.857942e-06
19096000000.0,-0.4946515,0.3500476,-1.981196e-05,2.68999e-05
19174000000.0,-0.1106335,-0.5887083,2.83212e-05,2.292444e-07
19252000000.0,0.6104383,0.06838005,-2.682762e-05,7.641544e-06
19330000000.0,-0.1937067,0.5710525,2.104354e-05,-1.904696e-05
19408000000.0,-0.4560152,-0.4065275,1.757202e-05,2.249278e-06
19486000000.0,0.5361947,-0.3132308,-2.477312e-05,5.655218e-06
19564000000.0,0.1937645,0.5754741,-1.322723e-06,2.278722e-05
19642000000.0,-0.6027394,-0.02388073,1.681845e-05,-1.96017e-05
19720000000.0,0.2152417,-0.571322,-5.522569e-06,-4.41078e-06
19798000000.0,0.5022574,0.3295732,-3.371014e-05,7.720777e-06
19876000000.0,-0.4615155,0.3598464,-1.697206e-05,-2.672041e-05
19954000000.0,-0.1550035,-0.5958973,-1.645428e-05,-1.265678e-05
20032000000.0,0.6111493,-0.02027263,1.826475e-05,-1.740946e-05
20110000000.0,-0.1253772,0.5745867,2.371295e-05,1.459596e-05
20188000000.0,-0.4834549,-0.3599637,-6.422583e-06,7.785909e-06
20266000000.0,0.4659034,-0.4070837,6.4081e-06,-9.227329e-06
20344000000.0,0.2740448,0.5180047,1.623981e-05,3.395364e-06
20422000000.0,-0.5747306,0.03205701,2.969254e-05,1.366576e-05
20500000000.0,0.1584289,-0.5940303,1.808333e-06,-2.613919e-05
20578000000.0,0.5474265,0.2321035,-7.516267e-07,-7.322242e-06
20656000000.0,-0.3760718,0.4229633,1.067921e-05,-7.212325e-06
20734000000.0,-0.2609064,-0.5410638,1.126223e-06,-3.156465e-06
20812000000.0,0.5872294,-0.1938808,-2.04803e-05,-2.027335e-05
20890000000.0,0.06098395,0.5580977,4.397832e-05,1.967693e-05
20968000000.0,-0.5375874,-0.1860684,-4.046086e-05,-4.060834e-06
21046000000.0,0.2866864,-0.5264605,-9.559507e-05,-0.0001264332
21124000000.0,0.4961724,0.2203101,4.007096e-05,-0.001037706
21202000000.0,-0.1929922,0.1003436,-0.007477519,-0.003204073
21280000000.0,0.0388156,-0.4821161,-0.004325533,0.0004727564
21358000000.0,0.5131088,-0.007046232,-0.002991178,-0.00234798
21436000000.0,-0.03052756,0.4085852,-0.001227158,-0.005336812
21514000000.0,-0.2921358,-0.1489644,0.002795964,-0.007327615
21592000000.0,0.1810234,-0.1872636,0.007951352,-0.00613866
21670000000.0,0.05915817,0.1953177,0.01129808,-0.002485744
21748000000.0,-0.240109,-0.1478558,0.008562631,0.002489582
21826000000.0,0.2199716,-0.319614,0.002858582,0.005729597
21904000000.0,0.3214507,0.178832,-0.002319342,0.003675916
21982000000.0,-0.2168403,0.2054065,-0.004841864,0.0003378501
22060000000.0,-0.1278086,-0.305846,-0.002988916,-0.002744561
22138000000.0,0.2795756,-0.1484064,-0.0001443671,-0.003440577
22216000000.0,0.09311232,0.1830463,0.002764588,-0.001340254
22294000000.0,-0.1307911,-0.04068069,0.00291963,0.001713798
22372000000.0,0.08956601,-0.1163878,0.00223004,0.00238867
22450000000.0,0.04694281,0.06789343,5.888868e-05,0.003601807
22528000000.0,-0.1075336,-0.0782897,-0.0004477583,0.002455086
22606000000.0,0.13859,-0.1679155,-0.002323879,-7.905013e-05
22684000000.0,0.1745943,0.1313164,-0.002463748,-0.002830182
22762000000.0,-0.1992018,0.09689998,0.001036899,-0.004582068
22840000000.0,-0.07230334,-0.2643639,0.004074214,-0.001930485
22918000000.0,0.256238,-0.09251584,0.002631674,0.004275591
22996000000.0,0.04024684,0.1946811,-0.003182077,0.006914229
23074000000.0,-0.2078449,-0.03962152,-0.007999648,0.0009113986
23152000000.0,0.03049138,-0.1862048,-0.005209862,-0.004937316
23230000000.0,0.1142706,0.01722827,0.003889631,-0.006790416
23308000000.0,-0.05735587,0.05391434,0.009902598,-0.002112613
23386000000.0,-0.01707813,-0.07056351,0.005946092,0.004891368
23464000000.0,0.03980061,-0.001169816,-0.003324698,0.006906942
23542000000.0,-0.07016309,-0.0163828,-0.006993646,0.0009850869
23620000000.0,0.0287568,-0.1309638,-0.00381398,-0.004643594
23698000000.0,0.1254664,0.03422991,0.001857924,-0.004921004
23776000000.0,-0.115367,0.1012919,0.00386829,-0.002130075
23854000000.0,-0.1182874,-0.1840731,0.002000403,0.002342163
23932000000.0,0.1566053,-0.1378197,-0.0005959185,0.003393139
24010000000.0,0.07758876,0.1502498,-0.00255435,0.001707875
24088000000.0,-0.2091046,0.02125446,-0.003356093,-0.0003436934
24166000000.0,-0.04437439,-0.2171926,-0.0007048291,-0.002851752
24244000000.0,0.1538426,-0.03956021,0.001019113,-0.001709357
24322000000.0,-0.01828489,0.1177632,0.001958161,0.002064243
24400000000.0,-0.1193073,-0.04144819,-0.0004417107,0.003852967
24478000000.0,-0.0009937605,-0.09773593,-0.002615816,0.00052957
24556000000.0,0.01487402,-0.02718744,-0.0009695725,-0.00526336
24634000000.0,0.001206108,-0.0448355,0.00464898,-0.00631759
24712000000.0,0.0244582,0.01086052,0.008900295,-0.0002361439
24790000000.0,-0.0763494,0.03719854,0.002969522,0.006776007
24868000000.0,-0.06314905,-0.1095836,-0.005869623,0.007031844
24946000000.0,0.1149124,-0.06511495,-0.007162393,-0.0001931233
25024000000.0,0.0302463,0.119928,-0.001673373,-0.005690975
25102000000.0,-0.1652144,-0.009202395,0.003877165,-0.003805447
25180000000.0,-0.003931244,-0.192007,0.003794169,0.001401453
25258000000.0,0.1652735,0.009675768,-0.001467901,0.004048076
25336000000.0,-0.05446796,0.1556261,-0.003790093,0.0006557943
25414000000.0,-0.1564698,-0.1013275,-0.0009271831,-0.002828561
25492000000.0,0.05661431,-0.1491123,0.003091165,-0.00105902
25570000000.0,0.0970941,0.05260488,0.002669203,0.002128321
25648000000.0,-0.07891084,0.08577956,-0.001022683,0.003650083
25726000000.0,-0.07556966,-0.05663073,-0.003269105,0.001302086
25804000000.0,-0.003040311,-0.05536973,-0.003022046,-0.002795773
25882000000.0,0.03243021,-0.01393233,0.001336962,-0.005598899
25960000000.0,0.02065726,0.03599595,0.006156316,-0.004172497
26038000000.0,-0.06520252,0.06170783,0.007135202,0.002483506
26116000000.0,-0.1015889,-0.05149752,0.00122811,0.007074792
26194000000.0,0.05176892,-0.08189649,-0.005795888,0.004835462
26272000000.0,0.07297873,0.09722129,-0.006134438,-0.002132381
